
**** 04/10/22 21:17:21 ****** PSpice Lite (October 2012) ****** ID# 10813 ****

 ** Profile: "SCHEMATIC1-Proiect1_Boeru_Bias"  [ E:\Proiect1_Boeru-PSpiceFiles\SCHEMATIC1\Proiect1_Boeru_Bias.sim ] 


 ****     CIRCUIT DESCRIPTION


******************************************************************************




** Creating circuit file "Proiect1_Boeru_Bias.cir" 
** WARNING: THIS AUTOMATICALLY GENERATED FILE MAY BE OVERWRITTEN BY SUBSEQUENT SIMULATIONS

*Libraries: 
* Profile Libraries :
* Local Libraries :
.LIB "C:/Users/brian/Desktop/Lib_ModelePSpice_Anexa_1/Modele_A1_lib/MJD32CG.lib" 
.LIB "C:/Users/brian/Desktop/Lib_ModelePSpice_Anexa_1/Modele_A1_lib/BC856B.lib" 
.LIB "C:/Users/brian/Desktop/Lib_ModelePSpice_Anexa_1/Modele_A1_lib/BC846B.lib" 
.LIB "C:/Users/brian/Desktop/Lib_ModelePSpice_Anexa_1/Modele_A1_lib/BZX84C5V1.lib" 
.LIB "C:/Users/brian/Desktop/Lib_ModelePSpice_Anexa_1/Modele_A1_lib/BZX84C6V8.lib" 
* From [PSPICE NETLIST] section of C:\Users\brian\AppData\Roaming\SPB_16.6\cdssetup\OrCAD_PSpice/16.6.0/PSpice.ini file:
.lib "nomd.lib" 

*Analysis directives: 
.OPTIONS ADVCONV
.PROBE64 V(alias(*)) I(alias(*)) W(alias(*)) D(alias(*)) NOISE(alias(*)) 
.INC "..\SCHEMATIC1.net" 



**** INCLUDING SCHEMATIC1.net ****
* source PROIECT1_BOERU
R_RSC         N177457 N177943  10 TC=0,0 
Q_Q4         N177619 N177619 N180228 QBC846B 
Q_Q2         N177619 N178077 N177571 QBC856B 
C_C3         0 N177457  10u  TC=0,0 
R_R1         N1781611 N178191  2.2k TC=0,0 
Q_Q3         N177555 N178515 N177571 QBC856B 
R_R4         N180228 N177877  100 TC=0,0 
R_RLoad         0 N177457  220 TC=0,0 
V_V1         0 N177877 6Vdc
R_R7         0 N178521  680 TC=0,0 
R_R5         N178389 N177877  100 TC=0,0 
Q_Q7         N177877 N177555 N177943 QMJD32CT4G 
X_R9         N178355 N178515 N178521 POT PARAMS: SET=1 VALUE=2k
D_D1         N178191 0 BZX84-C5V1 
R_R8         N178355 N177457  220 TC=0,0 
R_R6         0 N177571  100 TC=0,0 
Q_Q5         N177555 N177619 N178389 QBC846B 
C_C2         0 N178191  4.7u  TC=0,0 
Q_Q6         N177555 N177943 N177457 QBC856B 
C_C1         0 N177877  10u  TC=0,0 
Q_Q1         N177877 N177911 N178191 QBC856B 
R_R3         0 N178077  1k TC=0,0 
R_Rb         N177911 N177877  3.9k TC=0,0 
R_R2         N178077 N1781611  2.2k TC=0,0 

**** RESUMING Proiect1_Boeru_Bias.cir ****
.END

**** 04/10/22 21:17:21 ****** PSpice Lite (October 2012) ****** ID# 10813 ****

 ** Profile: "SCHEMATIC1-Proiect1_Boeru_Bias"  [ E:\Proiect1_Boeru-PSpiceFiles\SCHEMATIC1\Proiect1_Boeru_Bias.sim ] 


 ****     Diode MODEL PARAMETERS


******************************************************************************




               BZX84-C5V1      
          IS    2.666500E-18 
           N     .82284      
         ISR  150.400000E-12 
         IKF     .01176      
          BV    5.176        
         IBV     .10454      
          RS     .51617      
          TT   43.858000E-09 
         CJO  232.290000E-12 
          VJ     .79587      
           M     .35004      


**** 04/10/22 21:17:21 ****** PSpice Lite (October 2012) ****** ID# 10813 ****

 ** Profile: "SCHEMATIC1-Proiect1_Boeru_Bias"  [ E:\Proiect1_Boeru-PSpiceFiles\SCHEMATIC1\Proiect1_Boeru_Bias.sim ] 


 ****     BJT MODEL PARAMETERS


******************************************************************************




               QMJD32CT4G      QBC856B         QBC846B         
               PNP             PNP             NPN             
       LEVEL    1               1               1            
          IS  363.152000E-15   20.140000E-15   18.220000E-15 
          EG    1.15135                                      
          BF  272.001         315.3           324.4          
          NF     .981175         .9974           .9932       
         VAF    8.02311        39.15           82            
         IKF     .255979         .079            .109        
         ISE    1.395810E-09    6.578000E-15  289.400000E-18 
          NE    2.64418         1.45            1.4          
          BR   26.8791          8.68            8.29         
          NR     .990094         .9952           .9931       
         VAR   38.8632          9.5            17.9          
         IKR    2.55979          .09             .09         
         ISC  254.712000E-15   16.330000E-15    9.982000E-12 
          NC    1.09617         1.15            1.763        
         ISS    0               0               0            
          RB  210.108          10              10            
         RBM   10.000000E-06    5.000000E-06    5            
         IRB   13.167500E-06    5.000000E-06    5.000000E-06 
          RE     .03296          .663            .649        
          RC     .164799         .718            .7014       
         CJE  201.825000E-12   11.350000E-12   12.440000E-12 
         VJE     .360096         .7071           .7579       
         MJE     .350357         .3808           .3656       
         CJC  118.774000E-12    6.395000E-12    3.347000E-12 
         VJC     .694849         .4951           .5463       
         MJC     .382715         .44             .391        
        XCJC     .778775         .6288           .6193       
         CJS    0               0               0            
         VJS     .75             .75             .75         
         MJS     .5              .333            .333        
          FC     .9              .9059           .979        
          TF    3.622020E-09  654.600000E-12  490.800000E-12 
         XTF  276.075           5.387           9.51         
         VTF     .608188        6.245           2.927        
         ITF    7.779510E-03     .2108           .3131       
          TR    2.029570E-06   55.000000E-09   90.000000E-09 
         XTB     .709265                                     
         XTI    4.43052                                      
          KF    0               0               0            
          AF    1               1               1            
          CN    2.2             2.2             2.42         
           D     .52             .52             .87         


**** 04/10/22 21:17:21 ****** PSpice Lite (October 2012) ****** ID# 10813 ****

 ** Profile: "SCHEMATIC1-Proiect1_Boeru_Bias"  [ E:\Proiect1_Boeru-PSpiceFiles\SCHEMATIC1\Proiect1_Boeru_Bias.sim ] 


 ****     SMALL SIGNAL BIAS SOLUTION       TEMPERATURE =   27.000 DEG C


******************************************************************************



 NODE   VOLTAGE     NODE   VOLTAGE     NODE   VOLTAGE     NODE   VOLTAGE


(N177457)   -1.0252                   (N177555)   -1.6594                       

(N177571)    -.2981                   (N177619)   -5.2033                       

(N177877)   -6.0000                   (N177911)   -5.8302                       

(N177943)   -1.0754                   (N178077)    -.9443                       

(N178191)   -5.1204                   (N178355)    -.9463                       

(N178389)   -5.8500                   (N178515)    -.9463                       

(N178521)    -.2401                   (N180228)   -5.8510                       

(N1781611)   -3.0324                  




    VOLTAGE SOURCE CURRENTS
    NAME         CURRENT

    V_V1        -1.893E-02

    TOTAL POWER DISSIPATION   1.14E-01  WATTS



          JOB CONCLUDED

**** 04/10/22 21:17:21 ****** PSpice Lite (October 2012) ****** ID# 10813 ****

 ** Profile: "SCHEMATIC1-Proiect1_Boeru_Bias"  [ E:\Proiect1_Boeru-PSpiceFiles\SCHEMATIC1\Proiect1_Boeru_Bias.sim ] 


 ****     JOB STATISTICS SUMMARY


******************************************************************************



  Total job time (using Solver 1)   =         .02
