
**** 05/14/22 20:20:46 ****** PSpice Lite (October 2012) ****** ID# 10813 ****

 ** Profile: "SCHEMATIC1-AC"  [ c:\users\brian\desktop\proiect1_simulation_files_boeru\schematics\proiect1_boeru-pspicefiles\schemati


 ****     CIRCUIT DESCRIPTION


******************************************************************************




** Creating circuit file "AC.cir" 
** WARNING: THIS AUTOMATICALLY GENERATED FILE MAY BE OVERWRITTEN BY SUBSEQUENT SIMULATIONS

*Libraries: 
* Profile Libraries :
* Local Libraries :
.LIB "C:/Users/brian/Desktop/V_regulator_Andreea/New folder/Lib_ModelePSpice_Anexa_1_a (1)/Modele_A1_lib/BC856B.lib" 
.LIB "C:/Users/brian/Desktop/V_regulator_Andreea/New folder/Lib_ModelePSpice_Anexa_1_a (1)/Modele_A1_lib/BC846B.lib" 
.LIB "C:/Users/brian/Desktop/Lib_ModelePSpice_Anexa_1/Modele_A1_lib/THT/BC546.lib" 
.LIB "C:/Users/brian/Desktop/Lib_ModelePSpice_Anexa_1/Modele_A1_lib/THT/TIP32C.LIB" 
.LIB "C:/Users/brian/Desktop/Lib_ModelePSpice_Anexa_1/Modele_A1_lib/BZX84C2V7.lib" 
.LIB "C:/Users/brian/Desktop/Lib_ModelePSpice_Anexa_1/Modele_A1_lib/MJD32CG.lib" 
.LIB "C:/Users/brian/Desktop/Lib_ModelePSpice_Anexa_1/Modele_A1_lib/BC856B.lib" 
.LIB "C:/Users/brian/Desktop/Lib_ModelePSpice_Anexa_1/Modele_A1_lib/BC846B.lib" 
.LIB "C:/Users/brian/Desktop/Lib_ModelePSpice_Anexa_1/Modele_A1_lib/BZX84C5V1.lib" 
.LIB "C:/Users/brian/Desktop/Lib_ModelePSpice_Anexa_1/Modele_A1_lib/BZX84C6V8.lib" 
* From [PSPICE NETLIST] section of C:\Users\brian\AppData\Roaming\SPB_16.6\cdssetup\OrCAD_PSpice/16.6.0/PSpice.ini file:
.lib "nomd.lib" 

*Analysis directives: 
.TRAN  0 1000ns 0 
.OPTIONS ADVCONV
.PROBE64 V(alias(*)) I(alias(*)) W(alias(*)) D(alias(*)) NOISE(alias(*)) 
.INC "..\SCHEMATIC1.net" 



**** INCLUDING SCHEMATIC1.net ****
* source PROIECT1_BOERU
R_RSC1         N189299 N177943  10 TC=0,0 
C_C3         0 N177457  10u  TC=0,0 
R_R1         N1781611 N178191  2.2k TC=0,0 
R_R4         N180228 N177877  100 TC=0,0 
R_RLoad         0 N189917  100 TC=0,0 
V_V1         0 N177877 11Vdc
R_R7         0 N178521  680 TC=0,0 
R_R5         N178389 N177877  100 TC=0,0 
X_R9         N178355 N178515 N178521 POT PARAMS: SET=0 VALUE=2k
R_R8         N178355 N177457  330 TC=0,0 
R_R6         0 N177571  100 TC=0,0 
C_C2         0 N178191  4.7u  TC=0,0 
C_C1         0 N177877  10u  TC=0,0 
R_R3         0 N178077  1k TC=0,0 
R_Rb         N177911 N177877  22k TC=0,0 
R_R2         N178077 N1781611  2.2k TC=0,0 
D_D1         N178191 0 BZX84-C5V1 
R_RSC2         N189303 N189299  10 TC=0,0 
R_RSC3         N189316 N189303  10 TC=0,0 
R_RSC4         N177457 N189316  4.7 TC=0,0 
R_RLoad1         N189917 N177457  100 TC=0,0 
Q_Q14         N177877 N177555 N177943 QTIP32C 
Q_Q17         N177555 N177619 N178389 QBC846B 
Q_Q18         N177619 N177619 N180228 QBC846B 
Q_Q19         N177619 N178077 N177571 QBC856B 
Q_Q20         N177555 N178515 N177571 QBC856B 
Q_Q21         N177555 N177943 N177457 QBC856B 
Q_Q22         N177877 N177911 N178191 QBC856B 

**** RESUMING AC.cir ****
.END

**** 05/14/22 20:20:46 ****** PSpice Lite (October 2012) ****** ID# 10813 ****

 ** Profile: "SCHEMATIC1-AC"  [ c:\users\brian\desktop\proiect1_simulation_files_boeru\schematics\proiect1_boeru-pspicefiles\schemati


 ****     Diode MODEL PARAMETERS


******************************************************************************




               BZX84-C5V1      
          IS    2.666500E-18 
           N     .82284      
         ISR  150.400000E-12 
         IKF     .01176      
          BV    5.176        
         IBV     .10454      
          RS     .51617      
          TT   43.858000E-09 
         CJO  232.290000E-12 
          VJ     .79587      
           M     .35004      


**** 05/14/22 20:20:46 ****** PSpice Lite (October 2012) ****** ID# 10813 ****

 ** Profile: "SCHEMATIC1-AC"  [ c:\users\brian\desktop\proiect1_simulation_files_boeru\schematics\proiect1_boeru-pspicefiles\schemati


 ****     BJT MODEL PARAMETERS


******************************************************************************




               QBC856B         QBC846B         QTIP32C         
               PNP             NPN             PNP             
       LEVEL    1               1               1            
          IS   20.140000E-15   18.220000E-15    1.000000E-09 
          EG                                    1.05         
          BF  315.3           324.4           134.366        
          NF     .9974           .9932          1.29961      
         VAF   39.15           82              10            
         IKF     .079            .109            .742988     
         ISE    6.578000E-15  289.400000E-18  100.000000E-18 
          NE    1.45            1.4             1.40014      
          BR    8.68            8.29             .1          
          NR     .9952           .9931          1.46599      
         VAR    9.5            17.9           100            
         IKR     .09             .09            3.21978      
         ISC   16.330000E-15    9.982000E-12  100.000000E-18 
          NC    1.15            1.763           2.71657      
         ISS    0               0               0            
          RB   10              10               7.44433      
         RBM    5.000000E-06    5                .218936     
         IRB    5.000000E-06    5.000000E-06    2.41268      
          RE     .663            .649            .015228     
          RC     .718            .7014           .076142     
         CJE   11.350000E-12   12.440000E-12  326.474000E-12 
         VJE     .7071           .7579           .446178     
         MJE     .3808           .3656           .464223     
         CJC    6.395000E-12    3.347000E-12  307.595000E-12 
         VJC     .4951           .5463           .77548      
         MJC     .44             .391            .476497     
        XCJC     .6288           .6193           .799334     
         CJS    0               0               0            
         VJS     .75             .75             .75         
         MJS     .333            .333            .5          
          FC     .9059           .979            .8          
          TF  654.600000E-12  490.800000E-12   10.000000E-09 
         XTF    5.387           9.51            3.50642      
         VTF    6.245           2.927           8.2848       
         ITF     .2108           .3131           .030586     
          TR   55.000000E-09   90.000000E-09  100.000000E-09 
         XTB                                     .1          
         XTI                                    1            
          KF    0               0               0            
          AF    1               1               1            
          CN    2.2             2.42            2.2          
           D     .52             .87             .52         


**** 05/14/22 20:20:46 ****** PSpice Lite (October 2012) ****** ID# 10813 ****

 ** Profile: "SCHEMATIC1-AC"  [ c:\users\brian\desktop\proiect1_simulation_files_boeru\schematics\proiect1_boeru-pspicefiles\schemati


 ****     INITIAL TRANSIENT SOLUTION       TEMPERATURE =   27.000 DEG C


******************************************************************************



 NODE   VOLTAGE     NODE   VOLTAGE     NODE   VOLTAGE     NODE   VOLTAGE


(N177457)   -3.9809                   (N177555)   -5.1899                       

(N177571)    -.2942                   (N177619)  -10.0760                       

(N177877)  -11.0000                   (N177911)   -5.9568                       

(N177943)   -4.6405                   (N178077)    -.9530                       

(N178191)   -5.1794                   (N178355)   -3.5444                       

(N178389)  -10.7370                   (N178515)    -.8988                       

(N178521)    -.8988                   (N180228)  -10.7390                       

(N189299)   -4.4504                   (N189303)   -4.2603                       

(N189316)   -4.0703                   (N189917)   -1.9905                       

(N1781611)   -3.0662                  




    VOLTAGE SOURCE CURRENTS
    NAME         CURRENT

    V_V1        -7.199E-02

    TOTAL POWER DISSIPATION   7.92E-01  WATTS



          JOB CONCLUDED

**** 05/14/22 20:20:46 ****** PSpice Lite (October 2012) ****** ID# 10813 ****

 ** Profile: "SCHEMATIC1-AC"  [ c:\users\brian\desktop\proiect1_simulation_files_boeru\schematics\proiect1_boeru-pspicefiles\schemati


 ****     JOB STATISTICS SUMMARY


******************************************************************************



  Total job time (using Solver 1)   =         .02
