
**** 05/14/22 19:57:13 ****** PSpice Lite (October 2012) ****** ID# 10813 ****

 ** Profile: "SCHEMATIC1-Bias"  [ c:\users\brian\desktop\proiect1_simulation_files_boeru\schematics\proiect1_boeru-pspicefiles\schema


 ****     CIRCUIT DESCRIPTION


******************************************************************************




** Creating circuit file "Bias.cir" 
** WARNING: THIS AUTOMATICALLY GENERATED FILE MAY BE OVERWRITTEN BY SUBSEQUENT SIMULATIONS

*Libraries: 
* Profile Libraries :
.INC "c:\users\brian\desktop\proiect1_simulation_files_boeru\schematics\proiect1_boeru-pspicefiles\schematic1\Bias\Bias_profile.inc"
+ "" 
* Local Libraries :

**** INCLUDING Bias_profile.inc ****
.LIB    ".\tip32c.lib" 

**** RESUMING Bias.cir ****
.LIB "C:/Users/brian/Desktop/V_regulator_Andreea/New folder/Lib_ModelePSpice_Anexa_1_a (1)/Modele_A1_lib/BC856B.lib" 
.LIB "C:/Users/brian/Desktop/V_regulator_Andreea/New folder/Lib_ModelePSpice_Anexa_1_a (1)/Modele_A1_lib/BC846B.lib" 
.LIB "C:/Users/brian/Desktop/Lib_ModelePSpice_Anexa_1/Modele_A1_lib/THT/BC546.lib" 
.LIB "C:/Users/brian/Desktop/Lib_ModelePSpice_Anexa_1/Modele_A1_lib/THT/TIP32C.LIB" 
.LIB "C:/Users/brian/Desktop/Lib_ModelePSpice_Anexa_1/Modele_A1_lib/BZX84C2V7.lib" 
.LIB "C:/Users/brian/Desktop/Lib_ModelePSpice_Anexa_1/Modele_A1_lib/MJD32CG.lib" 
.LIB "C:/Users/brian/Desktop/Lib_ModelePSpice_Anexa_1/Modele_A1_lib/BC856B.lib" 
.LIB "C:/Users/brian/Desktop/Lib_ModelePSpice_Anexa_1/Modele_A1_lib/BC846B.lib" 
.LIB "C:/Users/brian/Desktop/Lib_ModelePSpice_Anexa_1/Modele_A1_lib/BZX84C5V1.lib" 
.LIB "C:/Users/brian/Desktop/Lib_ModelePSpice_Anexa_1/Modele_A1_lib/BZX84C6V8.lib" 
* From [PSPICE NETLIST] section of C:\Users\brian\AppData\Roaming\SPB_16.6\cdssetup\OrCAD_PSpice/16.6.0/PSpice.ini file:
.lib "nomd.lib" 

*Analysis directives: 
.OPTIONS ADVCONV
.PROBE64 V(alias(*)) I(alias(*)) W(alias(*)) D(alias(*)) NOISE(alias(*)) 
.INC "..\SCHEMATIC1.net" 



**** INCLUDING SCHEMATIC1.net ****
* source PROIECT1_BOERU
R_RSC1         N189299 N177943  10 TC=0,0 
C_C3         0 N177457  10u  TC=0,0 
R_R1         N1781611 N178191  2.2k TC=0,0 
R_R4         N180228 N177877  100 TC=0,0 
R_RLoad         0 N189917  100 TC=0,0 
V_V1         0 N177877 6Vdc
R_R7         0 N178521  680 TC=0,0 
R_R5         N178389 N177877  100 TC=0,0 
X_R9         N178355 N178515 N178521 POT PARAMS: SET=0 VALUE=2k
R_R8         N178355 N177457  330 TC=0,0 
R_R6         0 N177571  100 TC=0,0 
C_C2         0 N178191  4.7u  TC=0,0 
C_C1         0 N177877  10u  TC=0,0 
R_R3         0 N178077  1k TC=0,0 
R_Rb         N177911 N177877  22k TC=0,0 
R_R2         N178077 N1781611  2.2k TC=0,0 
D_D1         N178191 0 BZX84-C5V1 
R_RSC2         N189303 N189299  10 TC=0,0 
R_RSC3         N189316 N189303  10 TC=0,0 
R_RSC4         N177457 N189316  4.7 TC=0,0 
R_RLoad1         N189917 N177457  100 TC=0,0 
Q_Q14         N177877 N177555 N177943 QTIP32C 
Q_Q17         N177555 N177619 N178389 QBC846B 
Q_Q18         N177619 N177619 N180228 QBC846B 
Q_Q19         N177619 N178077 N177571 QBC856B 
Q_Q20         N177555 N178515 N177571 QBC856B 
Q_Q21         N177555 N177943 N177457 QBC856B 
Q_Q22         N177877 N177911 N178191 QBC856B 

**** RESUMING Bias.cir ****
.END

INFO(ORPSIM-15423): Unable to find index file tip32c.ind for library file tip32c.lib.

INFO(ORPSIM-15422): Making new index file tip32c.ind for library file tip32c.lib.

Index has 1 entries from 1 file(s).

**** 05/14/22 19:57:13 ****** PSpice Lite (October 2012) ****** ID# 10813 ****

 ** Profile: "SCHEMATIC1-Bias"  [ c:\users\brian\desktop\proiect1_simulation_files_boeru\schematics\proiect1_boeru-pspicefiles\schema


 ****     Diode MODEL PARAMETERS


******************************************************************************




               BZX84-C5V1      
          IS    2.666500E-18 
           N     .82284      
         ISR  150.400000E-12 
         IKF     .01176      
          BV    5.176        
         IBV     .10454      
          RS     .51617      
          TT   43.858000E-09 
         CJO  232.290000E-12 
          VJ     .79587      
           M     .35004      


**** 05/14/22 19:57:13 ****** PSpice Lite (October 2012) ****** ID# 10813 ****

 ** Profile: "SCHEMATIC1-Bias"  [ c:\users\brian\desktop\proiect1_simulation_files_boeru\schematics\proiect1_boeru-pspicefiles\schema


 ****     BJT MODEL PARAMETERS


******************************************************************************




               QTIP32C         QBC856B         QBC846B         
               PNP             PNP             NPN             
       LEVEL    1               1               1            
          IS    1.000000E-09   20.140000E-15   18.220000E-15 
          EG    1.05                                         
          BF  134.366         315.3           324.4          
          NF    1.29961          .9974           .9932       
         VAF   10              39.15           82            
         IKF     .742988         .079            .109        
         ISE  100.000000E-18    6.578000E-15  289.400000E-18 
          NE    1.40014         1.45            1.4          
          BR     .1             8.68            8.29         
          NR    1.46599          .9952           .9931       
         VAR  100               9.5            17.9          
         IKR    3.21978          .09             .09         
         ISC  100.000000E-18   16.330000E-15    9.982000E-12 
          NC    2.71657         1.15            1.763        
         ISS    0               0               0            
          RB    7.44433        10              10            
         RBM     .218936        5.000000E-06    5            
         IRB    2.41268         5.000000E-06    5.000000E-06 
          RE     .015228         .663            .649        
          RC     .076142         .718            .7014       
         CJE  326.474000E-12   11.350000E-12   12.440000E-12 
         VJE     .446178         .7071           .7579       
         MJE     .464223         .3808           .3656       
         CJC  307.595000E-12    6.395000E-12    3.347000E-12 
         VJC     .77548          .4951           .5463       
         MJC     .476497         .44             .391        
        XCJC     .799334         .6288           .6193       
         CJS    0               0               0            
         VJS     .75             .75             .75         
         MJS     .5              .333            .333        
          FC     .8              .9059           .979        
          TF   10.000000E-09  654.600000E-12  490.800000E-12 
         XTF    3.50642         5.387           9.51         
         VTF    8.2848          6.245           2.927        
         ITF     .030586         .2108           .3131       
          TR  100.000000E-09   55.000000E-09   90.000000E-09 
         XTB     .1                                          
         XTI    1                                            
          KF    0               0               0            
          AF    1               1               1            
          CN    2.2             2.2             2.42         
           D     .52             .52             .87         


**** 05/14/22 19:57:13 ****** PSpice Lite (October 2012) ****** ID# 10813 ****

 ** Profile: "SCHEMATIC1-Bias"  [ c:\users\brian\desktop\proiect1_simulation_files_boeru\schematics\proiect1_boeru-pspicefiles\schema


 ****     SMALL SIGNAL BIAS SOLUTION       TEMPERATURE =   27.000 DEG C


******************************************************************************



 NODE   VOLTAGE     NODE   VOLTAGE     NODE   VOLTAGE     NODE   VOLTAGE


(N177457)   -3.9027                   (N177555)   -5.1205                       

(N177571)    -.2746                   (N177619)   -5.1002                       

(N177877)   -6.0000                   (N177911)   -5.7474                       

(N177943)   -4.5582                   (N178077)    -.9339                       

(N178191)   -5.0775                   (N178355)   -3.4748                       

(N178389)   -5.7609                   (N178515)    -.8811                       

(N178521)    -.8811                   (N180228)   -5.7609                       

(N189299)   -4.3693                   (N189303)   -4.1804                       

(N189316)   -3.9915                   (N189917)   -1.9514                       

(N1781611)   -3.0057                  




    VOLTAGE SOURCE CURRENTS
    NAME         CURRENT

    V_V1        -2.671E-02

    TOTAL POWER DISSIPATION   1.60E-01  WATTS



          JOB CONCLUDED

**** 05/14/22 19:57:13 ****** PSpice Lite (October 2012) ****** ID# 10813 ****

 ** Profile: "SCHEMATIC1-Bias"  [ c:\users\brian\desktop\proiect1_simulation_files_boeru\schematics\proiect1_boeru-pspicefiles\schema


 ****     JOB STATISTICS SUMMARY


******************************************************************************



  Total job time (using Solver 1)   =         .03
